T1F94 000:039.477   SEGGER J-Link V6.82f Log File
T1F94 000:039.703   DLL Compiled: Aug 24 2020 11:15:27
T1F94 000:039.710   Logging started @ 2020-08-25 08:53
T1F94 000:039.716 - 39.719ms
T1F94 000:039.729 JLINK_SetWarnOutHandler(...)
T1F94 000:039.736 - 0.010ms
T1F94 000:039.744 JLINK_OpenEx(...)
T1F94 000:041.300   Firmware: J-Link Lite for Ghostyu compiled Jan 8 2018 13:10:00
T1F94 000:047.442   Hardware: V1.00
T1F94 000:047.459   S/N: 180100254
T1F94 000:047.467   OEM: SEGGER
T1F94 000:047.475   Feature(s): None
T1F94 000:048.803   TELNET listener socket opened on port 19021
T1F94 000:048.944   WEBSRV Starting webserver
T1F94 000:049.109   WEBSRV Webserver running on local port 19080
T1F94 000:049.122 - 9.381ms returns "O.K."
T1F94 000:049.150 JLINK_SetErrorOutHandler(...)
T1F94 000:049.156 - 0.009ms
T1F94 000:049.177 JLINK_ExecCommand("ProjectFile = "C:\lq\b_code\b_project\project\a_burn_flash\prj_keil_uVision\JLinkSettings.ini"", ...). 
T1F94 000:089.918   Ref file found at: C:\Keil_v5\ARM\Segger\JLinkDevices.ref
T1F94 000:090.116   XML referenced by ref file: C:\Program Files (x86)\SEGGER\JLink\JLinkDevices.xml
T1F94 000:091.049   C:\Program Files (x86)\SEGGER\JLink\JLinkDevices.xml evaluated successfully.
T1F94 000:127.192   Device "CORTEX-M0" selected.
T1F94 000:128.411 - 79.240ms returns 0x00
T1F94 000:129.674 JLINK_ExecCommand("Device = ING91800", ...). 
T1F94 000:130.654   Device "CORTEX-M0" selected.
T1F94 000:131.820 - 2.137ms returns 0x00
T1F94 000:131.842 JLINK_GetHardwareVersion()
T1F94 000:131.848 - 0.009ms returns 10000
T1F94 000:131.856 JLINK_GetDLLVersion()
T1F94 000:131.862 - 0.008ms returns 68206
T1F94 000:131.869 JLINK_GetOEMString(...)
T1F94 000:131.876 JLINK_GetFirmwareString(...)
T1F94 000:131.882 - 0.008ms
T1F94 000:134.146 JLINK_GetDLLVersion()
T1F94 000:134.156 - 0.013ms returns 68206
T1F94 000:134.164 JLINK_GetCompileDateTime()
T1F94 000:134.170 - 0.008ms
T1F94 000:135.890 JLINK_GetFirmwareString(...)
T1F94 000:135.904 - 0.016ms
T1F94 000:137.350 JLINK_GetHardwareVersion()
T1F94 000:137.369 - 0.021ms returns 10000
T1F94 000:138.160 JLINK_GetSN()
T1F94 000:138.171 - 0.014ms returns 180100254
T1F94 000:138.941 JLINK_GetOEMString(...)
T1F94 000:139.674 JLINK_TIF_Select(JLINKARM_TIF_SWD)
T1F94 000:140.566 - 0.899ms returns 0x00
T1F94 000:140.580 JLINK_HasError()
T1F94 000:140.602 JLINK_SetSpeed(5000)
T1F94 000:140.712 - 0.118ms
T1F94 000:140.734 JLINK_GetId()
T1F94 000:142.624   Found SW-DP with ID 0x2BA01477
T1F94 000:146.719   Old FW that does not support reading DPIDR via DAP jobs
T1F94 000:152.588   Unknown DP version. Assuming DPv0
T1F94 000:154.378   Scanning AP map to find all available APs
T1F94 000:158.253   AP[1]: Stopped AP scan as end of AP map has been reached
T1F94 000:159.030   AP[0]: AHB-AP (IDR: 0x24770011)
T1F94 000:159.776   Iterating through AP map to find AHB-AP to use
T1F94 000:166.581   AP[0]: Core found
T1F94 000:167.386   AP[0]: AHB-AP ROM base: 0xE00FF000
T1F94 000:171.295   CPUID register: 0x412FC231. Implementer code: 0x41 (ARM)
T1F94 000:172.114   Found Cortex-M3 r2p1, Little endian.
T1F94 000:279.379   Identified core does not match configuration. (Found: Cortex-M3, Configured: Cortex-M0)
T1F94 000:280.265   -- Max. mem block: 0x00001FF8
T1F94 000:280.366   CPU_ReadMem(4 bytes @ 0xE000EDF0)
T1F94 000:281.432   CPU_WriteMem(4 bytes @ 0xE000EDF0)
T1F94 000:282.137   CPU_ReadMem(4 bytes @ 0xE0002000)
T1F94 000:285.841   FPUnit: 6 code (BP) slots and 2 literal slots
T1F94 000:285.892   CPU_ReadMem(4 bytes @ 0xE000EDFC)
T1F94 000:286.705   CPU_WriteMem(4 bytes @ 0xE000EDFC)
T1F94 000:287.395   CPU_ReadMem(4 bytes @ 0xE0001000)
T1F94 000:288.132   CPU_WriteMem(4 bytes @ 0xE0001000)
T1F94 000:288.809   CPU_ReadMem(4 bytes @ 0xE000ED88)
T1F94 000:289.656   CPU_WriteMem(4 bytes @ 0xE000ED88)
T1F94 000:290.503   CPU_ReadMem(4 bytes @ 0xE000ED88)
T1F94 000:291.354   CPU_WriteMem(4 bytes @ 0xE000ED88)
T1F94 000:295.598   CoreSight components:
T1F94 000:297.738   ROMTbl[0] @ E00FF000
T1F94 000:297.775   CPU_ReadMem(64 bytes @ 0xE00FF000)
T1F94 000:299.013   CPU_ReadMem(32 bytes @ 0xE000EFE0)
T1F94 000:301.452   ROMTbl[0][0]: E000E000, CID: B105E00D, PID: 000BB000 SCS
T1F94 000:301.478   CPU_ReadMem(32 bytes @ 0xE0001FE0)
T1F94 000:303.925   ROMTbl[0][1]: E0001000, CID: B105E00D, PID: 003BB002 DWT
T1F94 000:303.961   CPU_ReadMem(32 bytes @ 0xE0002FE0)
T1F94 000:306.237   ROMTbl[0][2]: E0002000, CID: B105E00D, PID: 002BB003 FPB
T1F94 000:306.267   CPU_ReadMem(32 bytes @ 0xE0000FE0)
T1F94 000:308.403   ROMTbl[0][3]: E0000000, CID: B105E00D, PID: 003BB001 ITM
T1F94 000:308.425   CPU_ReadMem(32 bytes @ 0xE0040FE0)
T1F94 000:315.398   ROMTbl[0][4]: E0040000, CID: B105900D, PID: 003BB923 TPIU-Lite
T1F94 000:316.357 - 175.641ms returns 0x2BA01477
T1F94 000:316.391 JLINK_GetDLLVersion()
T1F94 000:316.398 - 0.011ms returns 68206
T1F94 000:316.408 JLINK_CORE_GetFound()
T1F94 000:316.415 - 0.010ms returns 0x30000FF
T1F94 000:316.545 JLINK_GetDebugInfo(0x100 = JLINKARM_ROM_TABLE_ADDR_INDEX)
T1F94 000:316.559   Value=0xE00FF000
T1F94 000:316.568 - 0.026ms returns 0
T1F94 000:321.415 JLINK_GetDebugInfo(0x100 = JLINKARM_ROM_TABLE_ADDR_INDEX)
T1F94 000:321.456   Value=0xE00FF000
T1F94 000:321.465 - 0.052ms returns 0
T1F94 000:321.473 JLINK_GetDebugInfo(0x101 = JLINKARM_DEBUG_INFO_ETM_ADDR_INDEX)
T1F94 000:321.479   Value=0x00000000
T1F94 000:321.487 - 0.017ms returns 0
T1F94 000:321.495 JLINK_ReadMem(0xE0041FF0, 0x10 Bytes, ...)
T1F94 000:321.536   CPU_ReadMem(16 bytes @ 0xE0041FF0)
T1F94 000:322.521   Data:  00 00 00 00 00 00 00 00 00 00 00 00 00 00 00 00
T1F94 000:322.545 - 1.053ms returns 0
T1F94 000:322.558 JLINK_GetDebugInfo(0x102 = JLINKARM_DEBUG_INFO_MTB_ADDR_INDEX)
T1F94 000:322.566   Value=0x00000000
T1F94 000:322.574 - 0.018ms returns 0
T1F94 000:322.581 JLINK_GetDebugInfo(0x103 = JLINKARM_DEBUG_INFO_TPIU_ADDR_INDEX)
T1F94 000:322.587   Value=0xE0040000
T1F94 000:322.595 - 0.016ms returns 0
T1F94 000:322.602 JLINK_GetDebugInfo(0x104 = JLINKARM_DEBUG_INFO_ITM_ADDR_INDEX)
T1F94 000:322.608   Value=0xE0000000
T1F94 000:322.616 - 0.016ms returns 0
T1F94 000:322.623 JLINK_GetDebugInfo(0x105 = JLINKARM_DEBUG_INFO_DWT_ADDR_INDEX)
T1F94 000:322.629   Value=0xE0001000
T1F94 000:322.637 - 0.016ms returns 0
T1F94 000:322.644 JLINK_GetDebugInfo(0x106 = JLINKARM_DEBUG_INFO_FPB_ADDR_INDEX)
T1F94 000:322.650   Value=0xE0002000
T1F94 000:322.658 - 0.016ms returns 0
T1F94 000:322.665 JLINK_GetDebugInfo(0x107 = JLINKARM_DEBUG_INFO_NVIC_ADDR_INDEX)
T1F94 000:322.673   Value=0xE000E000
T1F94 000:322.681 - 0.019ms returns 0
T1F94 000:322.688 JLINK_GetDebugInfo(0x10C = JLINKARM_DEBUG_INFO_DBG_ADDR_INDEX)
T1F94 000:322.695   Value=0xE000EDF0
T1F94 000:322.727 - 0.041ms returns 0
T1F94 000:322.735 JLINK_ReadMemU32(0xE000ED00, 0x1 Items)
T1F94 000:322.755   CPU_ReadMem(4 bytes @ 0xE000ED00)
T1F94 000:323.517   Data:  31 C2 2F 41
T1F94 000:323.542   Debug reg: CPUID
T1F94 000:323.550 - 0.818ms returns 1 (0x1)
T1F94 000:323.564 JLINK_HasError()
T1F94 000:323.572 JLINK_SetResetType(JLINKARM_CM3_RESET_TYPE_NORMAL)
T1F94 000:323.579 - 0.009ms returns JLINKARM_CM3_RESET_TYPE_NORMAL
T1F94 000:323.586 JLINK_Reset()
T1F94 000:323.622   CPU is running
T1F94 000:323.633   CPU_WriteMem(4 bytes @ 0xE000EDF0)
T1F94 000:324.535   CPU is running
T1F94 000:324.563   CPU_WriteMem(4 bytes @ 0xE000EDFC)
T1F94 000:330.331   Reset: Halt core after reset via DEMCR.VC_CORERESET.
T1F94 000:335.872   Reset: Reset device via AIRCR.SYSRESETREQ.
T1F94 000:335.936   CPU is running
T1F94 000:335.966   CPU_WriteMem(4 bytes @ 0xE000ED0C)
T1F94 000:390.440   CPU_ReadMem(4 bytes @ 0xE000EDF0)
T1F94 000:391.118   CPU_ReadMem(4 bytes @ 0xE000EDF0)
T1F94 000:391.769   CPU is running
T1F94 000:391.787   CPU_WriteMem(4 bytes @ 0xE000EDF0)
T1F94 000:392.306   CPU is running
T1F94 000:392.324   CPU_WriteMem(4 bytes @ 0xE000EDFC)
T1F94 000:398.502   CPU_ReadMem(4 bytes @ 0xE000EDF0)
T1F94 000:403.587   CPU_WriteMem(4 bytes @ 0xE0002000)
T1F94 000:404.109   CPU_ReadMem(4 bytes @ 0xE000EDFC)
T1F94 000:404.661   CPU_ReadMem(4 bytes @ 0xE0001000)
T1F94 000:405.183 - 81.603ms
T1F94 000:405.277 JLINK_Halt()
T1F94 000:405.287 - 0.012ms returns 0x00
T1F94 000:405.295 JLINK_IsHalted()
T1F94 000:405.301 - 0.009ms returns TRUE
T1F94 000:405.308 JLINK_ReadMemU32(0xE000EDF0, 0x1 Items)
T1F94 000:405.320   CPU_ReadMem(4 bytes @ 0xE000EDF0)
T1F94 000:405.798   Data:  03 00 03 00
T1F94 000:405.810   Debug reg: DHCSR
T1F94 000:405.831 - 0.525ms returns 1 (0x1)
T1F94 000:405.840 JLINK_WriteU32_64(0xE000EDF0, 0xA05F0003)
T1F94 000:405.849   Debug reg: DHCSR
T1F94 000:405.871   CPU_WriteMem(4 bytes @ 0xE000EDF0)
T1F94 000:406.357 - 0.535ms returns 0 (0x00000000)
T1F94 000:406.382 JLINK_WriteU32_64(0xE000EDFC, 0x01000000)
T1F94 000:406.389   Debug reg: DEMCR
T1F94 000:406.401   CPU_WriteMem(4 bytes @ 0xE000EDFC)
T1F94 000:406.908 - 0.532ms returns 0 (0x00000000)
T1F94 000:426.185 JLINK_GetHWStatus(...)
T1F94 000:426.540 - 0.365ms returns 0
T1F94 000:440.393 JLINK_GetNumBPUnits(Type = 0xFFFFFF00)
T1F94 000:440.422 - 0.031ms returns 0x06
T1F94 000:440.430 JLINK_GetNumBPUnits(Type = 0xF0)
T1F94 000:440.436 - 0.008ms returns 0x2000
T1F94 000:440.443 JLINK_GetNumWPUnits()
T1F94 000:440.449 - 0.008ms returns 4
T1F94 000:456.589 JLINK_GetSpeed()
T1F94 000:456.616 - 0.029ms returns 2000
T1F94 000:465.773 JLINK_ReadMemU32(0xE000E004, 0x1 Items)
T1F94 000:465.817   CPU_ReadMem(4 bytes @ 0xE000E004)
T1F94 000:466.401   Data:  00 00 00 00
T1F94 000:466.422 - 0.652ms returns 1 (0x1)
T1F94 000:466.433 JLINK_ReadMemU32(0xE000E004, 0x1 Items)
T1F94 000:466.445   CPU_ReadMem(4 bytes @ 0xE000E004)
T1F94 000:466.945   Data:  00 00 00 00
T1F94 000:466.973 - 0.543ms returns 1 (0x1)
T1F94 000:466.997 JLINK_WriteMem(0xE0001000, 0x1C Bytes, ...)
T1F94 000:467.004   Data:  01 00 00 00 00 00 00 00 00 00 00 00 00 00 00 00 ...
T1F94 000:467.832   CPU_WriteMem(28 bytes @ 0xE0001000)
T1F94 000:468.762 - 1.791ms returns 0x1C
T1F94 000:468.812 JLINK_ReadMem(0xE0001000, 0x1C Bytes, ...)
T1F94 000:468.825   CPU_ReadMem(28 bytes @ 0xE0001000)
T1F94 000:469.570   Data:  01 00 00 40 00 00 00 00 00 00 00 00 00 00 00 00 ...
T1F94 000:469.594 - 0.785ms returns 0
T1F94 000:469.620 JLINK_Halt()
T1F94 000:469.627 - 0.010ms returns 0x00
T1F94 000:469.635 JLINK_IsHalted()
T1F94 000:469.641 - 0.009ms returns TRUE
T1F94 000:473.133 JLINK_WriteMem(0x20000000, 0x1F0 Bytes, ...)
T1F94 000:473.146   Data:  00 BE 0A E0 0D 78 2D 06 68 40 08 24 40 00 00 D3 ...
T1F94 000:473.589   CPU_WriteMem(496 bytes @ 0x20000000)
T1F94 000:479.037 - 5.914ms returns 0x1F0
T1F94 000:479.077 JLINK_HasError()
T1F94 000:479.088 JLINK_WriteReg(R0, 0x00004000)
T1F94 000:479.141 - 0.057ms returns 0
T1F94 000:479.153 JLINK_WriteReg(R1, 0x00B71B00)
T1F94 000:479.160 - 0.011ms returns 0
T1F94 000:479.168 JLINK_WriteReg(R2, 0x00000001)
T1F94 000:479.175 - 0.009ms returns 0
T1F94 000:479.195 JLINK_WriteReg(R3, 0x00000000)
T1F94 000:479.201 - 0.009ms returns 0
T1F94 000:479.209 JLINK_WriteReg(R4, 0x00000000)
T1F94 000:479.215 - 0.009ms returns 0
T1F94 000:479.222 JLINK_WriteReg(R5, 0x00000000)
T1F94 000:479.228 - 0.008ms returns 0
T1F94 000:479.235 JLINK_WriteReg(R6, 0x00000000)
T1F94 000:479.241 - 0.023ms returns 0
T1F94 000:479.263 JLINK_WriteReg(R7, 0x00000000)
T1F94 000:479.270 - 0.016ms returns 0
T1F94 000:479.290 JLINK_WriteReg(R8, 0x00000000)
T1F94 000:479.307 - 0.020ms returns 0
T1F94 000:479.314 JLINK_WriteReg(R9, 0x200001E4)
T1F94 000:479.321 - 0.009ms returns 0
T1F94 000:479.329 JLINK_WriteReg(R10, 0x00000000)
T1F94 000:479.336 - 0.010ms returns 0
T1F94 000:479.344 JLINK_WriteReg(R11, 0x00000000)
T1F94 000:479.350 - 0.009ms returns 0
T1F94 000:479.358 JLINK_WriteReg(R12, 0x00000000)
T1F94 000:479.364 - 0.009ms returns 0
T1F94 000:479.371 JLINK_WriteReg(R13 (SP), 0x20008000)
T1F94 000:479.402 - 0.033ms returns 0
T1F94 000:479.409 JLINK_WriteReg(R14, 0x20000001)
T1F94 000:479.415 - 0.008ms returns 0
T1F94 000:479.422 JLINK_WriteReg(R15 (PC), 0x20000144)
T1F94 000:479.432 - 0.012ms returns 0
T1F94 000:479.440 JLINK_WriteReg(XPSR, 0x01000000)
T1F94 000:479.446 - 0.011ms returns 0
T1F94 000:479.456 JLINK_WriteReg(MSP, 0x20008000)
T1F94 000:479.462 - 0.009ms returns 0
T1F94 000:479.489 JLINK_WriteReg(PSP, 0x20008000)
T1F94 000:479.495 - 0.009ms returns 0
T1F94 000:479.503 JLINK_WriteReg(CFBP, 0x00000000)
T1F94 000:479.509 - 0.009ms returns 0
T1F94 000:479.517 JLINK_SetBPEx(Addr = 0x20000000, Type = 0xFFFFFFF2)
T1F94 000:479.531   CPU_ReadMem(4 bytes @ 0x20000000)
T1F94 000:480.201   CPU_WriteMem(4 bytes @ 0x20000000)
T1F94 000:480.854   CPU_ReadMem(4 bytes @ 0x20000000)
T1F94 000:481.423   CPU_WriteMem(4 bytes @ 0x20000000)
T1F94 000:482.058   CPU_ReadMem(2 bytes @ 0x20000000)
T1F94 000:482.773 - 3.265ms returns 0x00000001
T1F94 000:482.795 JLINK_Go()
T1F94 000:482.822   CPU_WriteMem(2 bytes @ 0x20000000)
T1F94 000:483.384   CPU_ReadMem(4 bytes @ 0xE0001000)
T1F94 000:483.909   CPU_WriteMem(4 bytes @ 0xE0002008)
T1F94 000:483.922   CPU_WriteMem(4 bytes @ 0xE000200C)
T1F94 000:483.931   CPU_WriteMem(4 bytes @ 0xE0002010)
T1F94 000:483.940   CPU_WriteMem(4 bytes @ 0xE0002014)
T1F94 000:483.948   CPU_WriteMem(4 bytes @ 0xE0002018)
T1F94 000:483.957   CPU_WriteMem(4 bytes @ 0xE000201C)
T1F94 000:486.365   CPU_WriteMem(4 bytes @ 0xE0001004)
T1F94 000:491.791 - 9.014ms
T1F94 000:491.822 JLINK_IsHalted()
T1F94 000:496.995   CPU_ReadMem(2 bytes @ 0x20000000)
T1F94 000:497.817 - 6.008ms returns TRUE
T1F94 000:497.842 JLINK_ReadReg(R15 (PC))
T1F94 000:497.852 - 0.013ms returns 0x20000000
T1F94 000:497.860 JLINK_ClrBPEx(BPHandle = 0x00000001)
T1F94 000:497.867 - 0.009ms returns 0x00
T1F94 000:497.874 JLINK_ReadReg(R0)
T1F94 000:497.901 - 0.029ms returns 0x00000000
T1F94 000:498.521 JLINK_HasError()
T1F94 000:498.535 JLINK_WriteReg(R0, 0x00026000)
T1F94 000:498.543 - 0.011ms returns 0
T1F94 000:498.550 JLINK_WriteReg(R1, 0x00002000)
T1F94 000:498.557 - 0.009ms returns 0
T1F94 000:498.565 JLINK_WriteReg(R2, 0x000000FF)
T1F94 000:498.582 - 0.020ms returns 0
T1F94 000:498.589 JLINK_WriteReg(R3, 0x00000000)
T1F94 000:498.596 - 0.009ms returns 0
T1F94 000:498.603 JLINK_WriteReg(R4, 0x00000000)
T1F94 000:498.609 - 0.009ms returns 0
T1F94 000:498.616 JLINK_WriteReg(R5, 0x00000000)
T1F94 000:498.622 - 0.008ms returns 0
T1F94 000:498.630 JLINK_WriteReg(R6, 0x00000000)
T1F94 000:498.636 - 0.009ms returns 0
T1F94 000:498.643 JLINK_WriteReg(R7, 0x00000000)
T1F94 000:498.649 - 0.009ms returns 0
T1F94 000:498.656 JLINK_WriteReg(R8, 0x00000000)
T1F94 000:498.662 - 0.009ms returns 0
T1F94 000:498.669 JLINK_WriteReg(R9, 0x200001E4)
T1F94 000:498.676 - 0.009ms returns 0
T1F94 000:498.683 JLINK_WriteReg(R10, 0x00000000)
T1F94 000:498.689 - 0.009ms returns 0
T1F94 000:498.696 JLINK_WriteReg(R11, 0x00000000)
T1F94 000:498.702 - 0.009ms returns 0
T1F94 000:498.709 JLINK_WriteReg(R12, 0x00000000)
T1F94 000:498.715 - 0.008ms returns 0
T1F94 000:498.723 JLINK_WriteReg(R13 (SP), 0x20008000)
T1F94 000:498.729 - 0.009ms returns 0
T1F94 000:498.736 JLINK_WriteReg(R14, 0x20000001)
T1F94 000:498.742 - 0.008ms returns 0
T1F94 000:498.749 JLINK_WriteReg(R15 (PC), 0x20000020)
T1F94 000:498.755 - 0.008ms returns 0
T1F94 000:498.762 JLINK_WriteReg(XPSR, 0x01000000)
T1F94 000:498.769 - 0.009ms returns 0
T1F94 000:498.776 JLINK_WriteReg(MSP, 0x20008000)
T1F94 000:498.782 - 0.008ms returns 0
T1F94 000:498.789 JLINK_WriteReg(PSP, 0x20008000)
T1F94 000:498.795 - 0.008ms returns 0
T1F94 000:498.802 JLINK_WriteReg(CFBP, 0x00000000)
T1F94 000:498.808 - 0.009ms returns 0
T1F94 000:498.816 JLINK_SetBPEx(Addr = 0x20000000, Type = 0xFFFFFFF2)
T1F94 000:498.823 - 0.009ms returns 0x00000002
T1F94 000:498.830 JLINK_Go()
T1F94 000:498.843   CPU_ReadMem(4 bytes @ 0xE0001000)
T1F94 000:504.176 - 5.357ms
T1F94 000:504.195 JLINK_IsHalted()
T1F94 000:508.754   CPU_ReadMem(2 bytes @ 0x20000000)
T1F94 000:509.524 - 5.335ms returns TRUE
T1F94 000:509.536 JLINK_ReadReg(R15 (PC))
T1F94 000:509.544 - 0.011ms returns 0x20000000
T1F94 000:509.552 JLINK_ClrBPEx(BPHandle = 0x00000002)
T1F94 000:509.558 - 0.009ms returns 0x00
T1F94 000:509.566 JLINK_ReadReg(R0)
T1F94 000:509.575 - 0.014ms returns 0x00000001
T1F94 000:509.585 JLINK_HasError()
T1F94 000:509.592 JLINK_WriteReg(R0, 0x00026000)
T1F94 000:509.599 - 0.009ms returns 0
T1F94 000:509.606 JLINK_WriteReg(R1, 0x00002000)
T1F94 000:509.612 - 0.009ms returns 0
T1F94 000:509.620 JLINK_WriteReg(R2, 0x000000FF)
T1F94 000:509.626 - 0.008ms returns 0
T1F94 000:509.633 JLINK_WriteReg(R3, 0x00000000)
T1F94 000:509.639 - 0.008ms returns 0
T1F94 000:509.646 JLINK_WriteReg(R4, 0x00000000)
T1F94 000:509.652 - 0.008ms returns 0
T1F94 000:509.659 JLINK_WriteReg(R5, 0x00000000)
T1F94 000:509.665 - 0.014ms returns 0
T1F94 000:509.678 JLINK_WriteReg(R6, 0x00000000)
T1F94 000:509.686 - 0.010ms returns 0
T1F94 000:509.693 JLINK_WriteReg(R7, 0x00000000)
T1F94 000:509.699 - 0.026ms returns 0
T1F94 000:509.724 JLINK_WriteReg(R8, 0x00000000)
T1F94 000:509.731 - 0.009ms returns 0
T1F94 000:509.752 JLINK_WriteReg(R9, 0x200001E4)
T1F94 000:509.758 - 0.009ms returns 0
T1F94 000:509.765 JLINK_WriteReg(R10, 0x00000000)
T1F94 000:509.771 - 0.009ms returns 0
T1F94 000:509.779 JLINK_WriteReg(R11, 0x00000000)
T1F94 000:509.785 - 0.009ms returns 0
T1F94 000:509.792 JLINK_WriteReg(R12, 0x00000000)
T1F94 000:509.798 - 0.008ms returns 0
T1F94 000:509.805 JLINK_WriteReg(R13 (SP), 0x20008000)
T1F94 000:509.811 - 0.009ms returns 0
T1F94 000:509.819 JLINK_WriteReg(R14, 0x20000001)
T1F94 000:509.825 - 0.009ms returns 0
T1F94 000:509.832 JLINK_WriteReg(R15 (PC), 0x2000015E)
T1F94 000:509.838 - 0.009ms returns 0
T1F94 000:509.845 JLINK_WriteReg(XPSR, 0x01000000)
T1F94 000:509.851 - 0.009ms returns 0
T1F94 000:509.858 JLINK_WriteReg(MSP, 0x20008000)
T1F94 000:509.864 - 0.008ms returns 0
T1F94 000:509.872 JLINK_WriteReg(PSP, 0x20008000)
T1F94 000:509.878 - 0.008ms returns 0
T1F94 000:509.885 JLINK_WriteReg(CFBP, 0x00000000)
T1F94 000:509.891 - 0.008ms returns 0
T1F94 000:509.898 JLINK_SetBPEx(Addr = 0x20000000, Type = 0xFFFFFFF2)
T1F94 000:509.905 - 0.009ms returns 0x00000003
T1F94 000:509.912 JLINK_Go()
T1F94 000:509.923   CPU_ReadMem(4 bytes @ 0xE0001000)
T1F94 000:515.445 - 5.540ms
T1F94 000:515.460 JLINK_IsHalted()
T1F94 000:520.077   CPU_ReadMem(2 bytes @ 0x20000000)
T1F94 000:520.782 - 5.328ms returns TRUE
T1F94 000:520.796 JLINK_ReadReg(R15 (PC))
T1F94 000:520.804 - 0.011ms returns 0x20000000
T1F94 000:520.812 JLINK_ClrBPEx(BPHandle = 0x00000003)
T1F94 000:520.819 - 0.009ms returns 0x00
T1F94 000:520.826 JLINK_ReadReg(R0)
T1F94 000:520.833 - 0.009ms returns 0x00000000
T1F94 000:521.283 JLINK_HasError()
T1F94 000:521.298 JLINK_WriteReg(R0, 0x00028000)
T1F94 000:521.306 - 0.010ms returns 0
T1F94 000:521.313 JLINK_WriteReg(R1, 0x00002000)
T1F94 000:521.320 - 0.009ms returns 0
T1F94 000:521.327 JLINK_WriteReg(R2, 0x000000FF)
T1F94 000:521.333 - 0.009ms returns 0
T1F94 000:521.340 JLINK_WriteReg(R3, 0x00000000)
T1F94 000:521.346 - 0.009ms returns 0
T1F94 000:521.354 JLINK_WriteReg(R4, 0x00000000)
T1F94 000:521.360 - 0.009ms returns 0
T1F94 000:521.367 JLINK_WriteReg(R5, 0x00000000)
T1F94 000:521.373 - 0.009ms returns 0
T1F94 000:521.380 JLINK_WriteReg(R6, 0x00000000)
T1F94 000:521.386 - 0.009ms returns 0
T1F94 000:521.393 JLINK_WriteReg(R7, 0x00000000)
T1F94 000:521.399 - 0.008ms returns 0
T1F94 000:521.407 JLINK_WriteReg(R8, 0x00000000)
T1F94 000:521.413 - 0.009ms returns 0
T1F94 000:521.420 JLINK_WriteReg(R9, 0x200001E4)
T1F94 000:521.426 - 0.008ms returns 0
T1F94 000:521.433 JLINK_WriteReg(R10, 0x00000000)
T1F94 000:521.439 - 0.009ms returns 0
T1F94 000:521.447 JLINK_WriteReg(R11, 0x00000000)
T1F94 000:521.453 - 0.008ms returns 0
T1F94 000:521.460 JLINK_WriteReg(R12, 0x00000000)
T1F94 000:521.466 - 0.008ms returns 0
T1F94 000:521.473 JLINK_WriteReg(R13 (SP), 0x20008000)
T1F94 000:521.479 - 0.009ms returns 0
T1F94 000:521.487 JLINK_WriteReg(R14, 0x20000001)
T1F94 000:521.493 - 0.009ms returns 0
T1F94 000:521.500 JLINK_WriteReg(R15 (PC), 0x20000020)
T1F94 000:521.506 - 0.009ms returns 0
T1F94 000:521.513 JLINK_WriteReg(XPSR, 0x01000000)
T1F94 000:521.519 - 0.009ms returns 0
T1F94 000:521.530 JLINK_WriteReg(MSP, 0x20008000)
T1F94 000:521.538 - 0.010ms returns 0
T1F94 000:521.545 JLINK_WriteReg(PSP, 0x20008000)
T1F94 000:521.551 - 0.009ms returns 0
T1F94 000:521.558 JLINK_WriteReg(CFBP, 0x00000000)
T1F94 000:521.564 - 0.008ms returns 0
T1F94 000:521.572 JLINK_SetBPEx(Addr = 0x20000000, Type = 0xFFFFFFF2)
T1F94 000:521.579 - 0.009ms returns 0x00000004
T1F94 000:521.586 JLINK_Go()
T1F94 000:521.598   CPU_ReadMem(4 bytes @ 0xE0001000)
T1F94 000:526.804 - 5.224ms
T1F94 000:526.818 JLINK_IsHalted()
T1F94 000:531.818   CPU_ReadMem(2 bytes @ 0x20000000)
T1F94 000:532.566 - 5.753ms returns TRUE
T1F94 000:532.581 JLINK_ReadReg(R15 (PC))
T1F94 000:532.589 - 0.011ms returns 0x20000000
T1F94 000:532.597 JLINK_ClrBPEx(BPHandle = 0x00000004)
T1F94 000:532.603 - 0.009ms returns 0x00
T1F94 000:532.672 JLINK_ReadReg(R0)
T1F94 000:532.683 - 0.014ms returns 0x00000001
T1F94 000:532.691 JLINK_HasError()
T1F94 000:532.699 JLINK_WriteReg(R0, 0x00028000)
T1F94 000:532.705 - 0.009ms returns 0
T1F94 000:532.713 JLINK_WriteReg(R1, 0x00002000)
T1F94 000:532.720 - 0.010ms returns 0
T1F94 000:532.727 JLINK_WriteReg(R2, 0x000000FF)
T1F94 000:532.733 - 0.009ms returns 0
T1F94 000:532.740 JLINK_WriteReg(R3, 0x00000000)
T1F94 000:532.747 - 0.009ms returns 0
T1F94 000:532.754 JLINK_WriteReg(R4, 0x00000000)
T1F94 000:532.760 - 0.009ms returns 0
T1F94 000:532.767 JLINK_WriteReg(R5, 0x00000000)
T1F94 000:532.773 - 0.009ms returns 0
T1F94 000:532.781 JLINK_WriteReg(R6, 0x00000000)
T1F94 000:532.787 - 0.008ms returns 0
T1F94 000:532.794 JLINK_WriteReg(R7, 0x00000000)
T1F94 000:532.800 - 0.008ms returns 0
T1F94 000:532.807 JLINK_WriteReg(R8, 0x00000000)
T1F94 000:532.813 - 0.009ms returns 0
T1F94 000:532.820 JLINK_WriteReg(R9, 0x200001E4)
T1F94 000:532.826 - 0.008ms returns 0
T1F94 000:532.833 JLINK_WriteReg(R10, 0x00000000)
T1F94 000:532.840 - 0.009ms returns 0
T1F94 000:532.847 JLINK_WriteReg(R11, 0x00000000)
T1F94 000:532.853 - 0.009ms returns 0
T1F94 000:532.860 JLINK_WriteReg(R12, 0x00000000)
T1F94 000:532.866 - 0.008ms returns 0
T1F94 000:532.873 JLINK_WriteReg(R13 (SP), 0x20008000)
T1F94 000:532.880 - 0.009ms returns 0
T1F94 000:532.887 JLINK_WriteReg(R14, 0x20000001)
T1F94 000:532.893 - 0.009ms returns 0
T1F94 000:532.900 JLINK_WriteReg(R15 (PC), 0x2000015E)
T1F94 000:532.906 - 0.009ms returns 0
T1F94 000:532.913 JLINK_WriteReg(XPSR, 0x01000000)
T1F94 000:532.921 - 0.010ms returns 0
T1F94 000:532.928 JLINK_WriteReg(MSP, 0x20008000)
T1F94 000:532.934 - 0.008ms returns 0
T1F94 000:532.941 JLINK_WriteReg(PSP, 0x20008000)
T1F94 000:532.970 - 0.032ms returns 0
T1F94 000:532.978 JLINK_WriteReg(CFBP, 0x00000000)
T1F94 000:532.984 - 0.009ms returns 0
T1F94 000:533.004 JLINK_SetBPEx(Addr = 0x20000000, Type = 0xFFFFFFF2)
T1F94 000:533.011 - 0.009ms returns 0x00000005
T1F94 000:533.018 JLINK_Go()
T1F94 000:533.029   CPU_ReadMem(4 bytes @ 0xE0001000)
T1F94 000:538.801 - 5.795ms
T1F94 000:538.822 JLINK_IsHalted()
T1F94 000:543.601   CPU_ReadMem(2 bytes @ 0x20000000)
T1F94 000:544.147 - 5.334ms returns TRUE
T1F94 000:544.166 JLINK_ReadReg(R15 (PC))
T1F94 000:544.177 - 0.014ms returns 0x20000000
T1F94 000:544.186 JLINK_ClrBPEx(BPHandle = 0x00000005)
T1F94 000:544.195 - 0.011ms returns 0x00
T1F94 000:544.203 JLINK_ReadReg(R0)
T1F94 000:544.211 - 0.011ms returns 0x00000000
T1F94 000:544.788 JLINK_HasError()
T1F94 000:544.803 JLINK_WriteReg(R0, 0x0002A000)
T1F94 000:544.813 - 0.013ms returns 0
T1F94 000:544.822 JLINK_WriteReg(R1, 0x00002000)
T1F94 000:544.829 - 0.010ms returns 0
T1F94 000:544.838 JLINK_WriteReg(R2, 0x000000FF)
T1F94 000:544.845 - 0.010ms returns 0
T1F94 000:544.861 JLINK_WriteReg(R3, 0x00000000)
T1F94 000:544.869 - 0.011ms returns 0
T1F94 000:544.878 JLINK_WriteReg(R4, 0x00000000)
T1F94 000:544.885 - 0.010ms returns 0
T1F94 000:544.894 JLINK_WriteReg(R5, 0x00000000)
T1F94 000:544.901 - 0.010ms returns 0
T1F94 000:544.910 JLINK_WriteReg(R6, 0x00000000)
T1F94 000:544.917 - 0.010ms returns 0
T1F94 000:544.926 JLINK_WriteReg(R7, 0x00000000)
T1F94 000:544.936 - 0.016ms returns 0
T1F94 000:544.947 JLINK_WriteReg(R8, 0x00000000)
T1F94 000:544.955 - 0.010ms returns 0
T1F94 000:544.963 JLINK_WriteReg(R9, 0x200001E4)
T1F94 000:544.970 - 0.010ms returns 0
T1F94 000:544.979 JLINK_WriteReg(R10, 0x00000000)
T1F94 000:544.986 - 0.010ms returns 0
T1F94 000:544.995 JLINK_WriteReg(R11, 0x00000000)
T1F94 000:545.002 - 0.010ms returns 0
T1F94 000:545.010 JLINK_WriteReg(R12, 0x00000000)
T1F94 000:545.017 - 0.010ms returns 0
T1F94 000:545.026 JLINK_WriteReg(R13 (SP), 0x20008000)
T1F94 000:545.033 - 0.011ms returns 0
T1F94 000:545.042 JLINK_WriteReg(R14, 0x20000001)
T1F94 000:545.049 - 0.010ms returns 0
T1F94 000:545.058 JLINK_WriteReg(R15 (PC), 0x20000020)
T1F94 000:545.065 - 0.010ms returns 0
T1F94 000:545.074 JLINK_WriteReg(XPSR, 0x01000000)
T1F94 000:545.081 - 0.010ms returns 0
T1F94 000:545.089 JLINK_WriteReg(MSP, 0x20008000)
T1F94 000:545.097 - 0.010ms returns 0
T1F94 000:545.105 JLINK_WriteReg(PSP, 0x20008000)
T1F94 000:545.112 - 0.010ms returns 0
T1F94 000:545.121 JLINK_WriteReg(CFBP, 0x00000000)
T1F94 000:545.128 - 0.010ms returns 0
T1F94 000:545.137 JLINK_SetBPEx(Addr = 0x20000000, Type = 0xFFFFFFF2)
T1F94 000:545.146 - 0.012ms returns 0x00000006
T1F94 000:545.155 JLINK_Go()
T1F94 000:545.170   CPU_ReadMem(4 bytes @ 0xE0001000)
T1F94 000:550.328 - 5.187ms
T1F94 000:550.351 JLINK_IsHalted()
T1F94 000:554.865   CPU_ReadMem(2 bytes @ 0x20000000)
T1F94 000:555.429 - 5.086ms returns TRUE
T1F94 000:555.447 JLINK_ReadReg(R15 (PC))
T1F94 000:555.457 - 0.014ms returns 0x20000000
T1F94 000:555.467 JLINK_ClrBPEx(BPHandle = 0x00000006)
T1F94 000:555.475 - 0.011ms returns 0x00
T1F94 000:555.484 JLINK_ReadReg(R0)
T1F94 000:555.492 - 0.010ms returns 0x00000001
T1F94 000:555.501 JLINK_HasError()
T1F94 000:555.511 JLINK_WriteReg(R0, 0x0002A000)
T1F94 000:555.519 - 0.011ms returns 0
T1F94 000:555.527 JLINK_WriteReg(R1, 0x00002000)
T1F94 000:555.535 - 0.010ms returns 0
T1F94 000:555.544 JLINK_WriteReg(R2, 0x000000FF)
T1F94 000:555.551 - 0.010ms returns 0
T1F94 000:555.559 JLINK_WriteReg(R3, 0x00000000)
T1F94 000:555.567 - 0.010ms returns 0
T1F94 000:555.575 JLINK_WriteReg(R4, 0x00000000)
T1F94 000:555.582 - 0.010ms returns 0
T1F94 000:555.591 JLINK_WriteReg(R5, 0x00000000)
T1F94 000:555.598 - 0.010ms returns 0
T1F94 000:555.607 JLINK_WriteReg(R6, 0x00000000)
T1F94 000:555.614 - 0.010ms returns 0
T1F94 000:555.623 JLINK_WriteReg(R7, 0x00000000)
T1F94 000:555.630 - 0.010ms returns 0
T1F94 000:555.639 JLINK_WriteReg(R8, 0x00000000)
T1F94 000:555.646 - 0.010ms returns 0
T1F94 000:555.655 JLINK_WriteReg(R9, 0x200001E4)
T1F94 000:555.662 - 0.010ms returns 0
T1F94 000:555.670 JLINK_WriteReg(R10, 0x00000000)
T1F94 000:555.678 - 0.010ms returns 0
T1F94 000:555.686 JLINK_WriteReg(R11, 0x00000000)
T1F94 000:555.693 - 0.010ms returns 0
T1F94 000:555.702 JLINK_WriteReg(R12, 0x00000000)
T1F94 000:555.709 - 0.010ms returns 0
T1F94 000:555.718 JLINK_WriteReg(R13 (SP), 0x20008000)
T1F94 000:555.725 - 0.011ms returns 0
T1F94 000:555.734 JLINK_WriteReg(R14, 0x20000001)
T1F94 000:555.741 - 0.010ms returns 0
T1F94 000:555.750 JLINK_WriteReg(R15 (PC), 0x2000015E)
T1F94 000:555.757 - 0.010ms returns 0
T1F94 000:555.765 JLINK_WriteReg(XPSR, 0x01000000)
T1F94 000:555.773 - 0.011ms returns 0
T1F94 000:555.782 JLINK_WriteReg(MSP, 0x20008000)
T1F94 000:555.789 - 0.010ms returns 0
T1F94 000:555.797 JLINK_WriteReg(PSP, 0x20008000)
T1F94 000:555.805 - 0.010ms returns 0
T1F94 000:555.813 JLINK_WriteReg(CFBP, 0x00000000)
T1F94 000:555.820 - 0.010ms returns 0
T1F94 000:555.831 JLINK_SetBPEx(Addr = 0x20000000, Type = 0xFFFFFFF2)
T1F94 000:555.839 - 0.011ms returns 0x00000007
T1F94 000:555.848 JLINK_Go()
T1F94 000:555.861   CPU_ReadMem(4 bytes @ 0xE0001000)
T1F94 000:560.865 - 5.025ms
T1F94 000:560.884 JLINK_IsHalted()
T1F94 000:565.338   CPU_ReadMem(2 bytes @ 0x20000000)
T1F94 000:565.870 - 4.994ms returns TRUE
T1F94 000:565.889 JLINK_ReadReg(R15 (PC))
T1F94 000:565.900 - 0.013ms returns 0x20000000
T1F94 000:565.909 JLINK_ClrBPEx(BPHandle = 0x00000007)
T1F94 000:565.920 - 0.014ms returns 0x00
T1F94 000:565.930 JLINK_ReadReg(R0)
T1F94 000:565.937 - 0.009ms returns 0x00000000
T1F94 000:566.440 JLINK_HasError()
T1F94 000:566.452 JLINK_WriteReg(R0, 0x0002C000)
T1F94 000:566.460 - 0.011ms returns 0
T1F94 000:566.467 JLINK_WriteReg(R1, 0x00002000)
T1F94 000:566.474 - 0.009ms returns 0
T1F94 000:566.481 JLINK_WriteReg(R2, 0x000000FF)
T1F94 000:566.487 - 0.009ms returns 0
T1F94 000:566.495 JLINK_WriteReg(R3, 0x00000000)
T1F94 000:566.501 - 0.009ms returns 0
T1F94 000:566.508 JLINK_WriteReg(R4, 0x00000000)
T1F94 000:566.514 - 0.009ms returns 0
T1F94 000:566.521 JLINK_WriteReg(R5, 0x00000000)
T1F94 000:566.528 - 0.009ms returns 0
T1F94 000:566.535 JLINK_WriteReg(R6, 0x00000000)
T1F94 000:566.541 - 0.009ms returns 0
T1F94 000:566.548 JLINK_WriteReg(R7, 0x00000000)
T1F94 000:566.554 - 0.009ms returns 0
T1F94 000:566.561 JLINK_WriteReg(R8, 0x00000000)
T1F94 000:566.568 - 0.009ms returns 0
T1F94 000:566.575 JLINK_WriteReg(R9, 0x200001E4)
T1F94 000:566.581 - 0.008ms returns 0
T1F94 000:566.588 JLINK_WriteReg(R10, 0x00000000)
T1F94 000:566.594 - 0.009ms returns 0
T1F94 000:566.602 JLINK_WriteReg(R11, 0x00000000)
T1F94 000:566.609 - 0.009ms returns 0
T1F94 000:566.616 JLINK_WriteReg(R12, 0x00000000)
T1F94 000:566.622 - 0.009ms returns 0
T1F94 000:566.629 JLINK_WriteReg(R13 (SP), 0x20008000)
T1F94 000:566.636 - 0.009ms returns 0
T1F94 000:566.643 JLINK_WriteReg(R14, 0x20000001)
T1F94 000:566.649 - 0.009ms returns 0
T1F94 000:566.657 JLINK_WriteReg(R15 (PC), 0x20000020)
T1F94 000:566.663 - 0.009ms returns 0
T1F94 000:566.670 JLINK_WriteReg(XPSR, 0x01000000)
T1F94 000:566.676 - 0.009ms returns 0
T1F94 000:566.684 JLINK_WriteReg(MSP, 0x20008000)
T1F94 000:566.690 - 0.008ms returns 0
T1F94 000:566.697 JLINK_WriteReg(PSP, 0x20008000)
T1F94 000:566.703 - 0.009ms returns 0
T1F94 000:566.710 JLINK_WriteReg(CFBP, 0x00000000)
T1F94 000:566.716 - 0.009ms returns 0
T1F94 000:566.724 JLINK_SetBPEx(Addr = 0x20000000, Type = 0xFFFFFFF2)
T1F94 000:566.731 - 0.010ms returns 0x00000008
T1F94 000:566.738 JLINK_Go()
T1F94 000:566.751   CPU_ReadMem(4 bytes @ 0xE0001000)
T1F94 000:571.890 - 5.166ms
T1F94 000:571.913 JLINK_IsHalted()
T1F94 000:576.395   CPU_ReadMem(2 bytes @ 0x20000000)
T1F94 000:576.949 - 5.042ms returns TRUE
T1F94 000:576.963 JLINK_ReadReg(R15 (PC))
T1F94 000:576.972 - 0.012ms returns 0x20000000
T1F94 000:576.980 JLINK_ClrBPEx(BPHandle = 0x00000008)
T1F94 000:576.987 - 0.009ms returns 0x00
T1F94 000:576.994 JLINK_ReadReg(R0)
T1F94 000:577.000 - 0.009ms returns 0x00000001
T1F94 000:577.009 JLINK_HasError()
T1F94 000:577.017 JLINK_WriteReg(R0, 0x0002C000)
T1F94 000:577.023 - 0.009ms returns 0
T1F94 000:577.031 JLINK_WriteReg(R1, 0x00002000)
T1F94 000:577.037 - 0.009ms returns 0
T1F94 000:577.045 JLINK_WriteReg(R2, 0x000000FF)
T1F94 000:577.051 - 0.009ms returns 0
T1F94 000:577.058 JLINK_WriteReg(R3, 0x00000000)
T1F94 000:577.064 - 0.009ms returns 0
T1F94 000:577.071 JLINK_WriteReg(R4, 0x00000000)
T1F94 000:577.077 - 0.008ms returns 0
T1F94 000:577.084 JLINK_WriteReg(R5, 0x00000000)
T1F94 000:577.090 - 0.008ms returns 0
T1F94 000:577.098 JLINK_WriteReg(R6, 0x00000000)
T1F94 000:577.104 - 0.008ms returns 0
T1F94 000:577.111 JLINK_WriteReg(R7, 0x00000000)
T1F94 000:577.117 - 0.008ms returns 0
T1F94 000:577.124 JLINK_WriteReg(R8, 0x00000000)
T1F94 000:577.130 - 0.009ms returns 0
T1F94 000:577.137 JLINK_WriteReg(R9, 0x200001E4)
T1F94 000:577.143 - 0.008ms returns 0
T1F94 000:577.150 JLINK_WriteReg(R10, 0x00000000)
T1F94 000:577.157 - 0.008ms returns 0
T1F94 000:577.164 JLINK_WriteReg(R11, 0x00000000)
T1F94 000:577.170 - 0.008ms returns 0
T1F94 000:577.177 JLINK_WriteReg(R12, 0x00000000)
T1F94 000:577.183 - 0.008ms returns 0
T1F94 000:577.190 JLINK_WriteReg(R13 (SP), 0x20008000)
T1F94 000:577.196 - 0.009ms returns 0
T1F94 000:577.204 JLINK_WriteReg(R14, 0x20000001)
T1F94 000:577.210 - 0.009ms returns 0
T1F94 000:577.217 JLINK_WriteReg(R15 (PC), 0x2000015E)
T1F94 000:577.223 - 0.009ms returns 0
T1F94 000:577.266 JLINK_WriteReg(XPSR, 0x01000000)
T1F94 000:577.274 - 0.011ms returns 0
T1F94 000:577.281 JLINK_WriteReg(MSP, 0x20008000)
T1F94 000:577.288 - 0.008ms returns 0
T1F94 000:577.295 JLINK_WriteReg(PSP, 0x20008000)
T1F94 000:577.301 - 0.009ms returns 0
T1F94 000:577.308 JLINK_WriteReg(CFBP, 0x00000000)
T1F94 000:577.314 - 0.009ms returns 0
T1F94 000:577.321 JLINK_SetBPEx(Addr = 0x20000000, Type = 0xFFFFFFF2)
T1F94 000:577.328 - 0.009ms returns 0x00000009
T1F94 000:577.336 JLINK_Go()
T1F94 000:577.347   CPU_ReadMem(4 bytes @ 0xE0001000)
T1F94 000:582.304 - 4.978ms
T1F94 000:582.322 JLINK_IsHalted()
T1F94 000:586.854   CPU_ReadMem(2 bytes @ 0x20000000)
T1F94 000:587.418 - 5.105ms returns TRUE
T1F94 000:587.437 JLINK_ReadReg(R15 (PC))
T1F94 000:587.448 - 0.014ms returns 0x20000000
T1F94 000:587.456 JLINK_ClrBPEx(BPHandle = 0x00000009)
T1F94 000:587.463 - 0.009ms returns 0x00
T1F94 000:587.471 JLINK_ReadReg(R0)
T1F94 000:587.477 - 0.009ms returns 0x00000000
T1F94 000:587.887 JLINK_HasError()
T1F94 000:587.900 JLINK_WriteReg(R0, 0x00000001)
T1F94 000:587.908 - 0.011ms returns 0
T1F94 000:587.916 JLINK_WriteReg(R1, 0x00002000)
T1F94 000:587.922 - 0.009ms returns 0
T1F94 000:587.929 JLINK_WriteReg(R2, 0x000000FF)
T1F94 000:587.936 - 0.009ms returns 0
T1F94 000:587.943 JLINK_WriteReg(R3, 0x00000000)
T1F94 000:587.949 - 0.009ms returns 0
T1F94 000:587.957 JLINK_WriteReg(R4, 0x00000000)
T1F94 000:587.963 - 0.009ms returns 0
T1F94 000:587.970 JLINK_WriteReg(R5, 0x00000000)
T1F94 000:587.976 - 0.008ms returns 0
T1F94 000:587.983 JLINK_WriteReg(R6, 0x00000000)
T1F94 000:587.989 - 0.009ms returns 0
T1F94 000:587.996 JLINK_WriteReg(R7, 0x00000000)
T1F94 000:588.003 - 0.009ms returns 0
T1F94 000:588.010 JLINK_WriteReg(R8, 0x00000000)
T1F94 000:588.016 - 0.009ms returns 0
T1F94 000:588.023 JLINK_WriteReg(R9, 0x200001E4)
T1F94 000:588.029 - 0.008ms returns 0
T1F94 000:588.036 JLINK_WriteReg(R10, 0x00000000)
T1F94 000:588.043 - 0.010ms returns 0
T1F94 000:588.051 JLINK_WriteReg(R11, 0x00000000)
T1F94 000:588.057 - 0.008ms returns 0
T1F94 000:588.064 JLINK_WriteReg(R12, 0x00000000)
T1F94 000:588.071 - 0.008ms returns 0
T1F94 000:588.078 JLINK_WriteReg(R13 (SP), 0x20008000)
T1F94 000:588.085 - 0.010ms returns 0
T1F94 000:588.092 JLINK_WriteReg(R14, 0x20000001)
T1F94 000:588.098 - 0.009ms returns 0
T1F94 000:588.105 JLINK_WriteReg(R15 (PC), 0x2000014E)
T1F94 000:588.112 - 0.009ms returns 0
T1F94 000:588.119 JLINK_WriteReg(XPSR, 0x01000000)
T1F94 000:588.125 - 0.009ms returns 0
T1F94 000:588.132 JLINK_WriteReg(MSP, 0x20008000)
T1F94 000:588.139 - 0.008ms returns 0
T1F94 000:588.146 JLINK_WriteReg(PSP, 0x20008000)
T1F94 000:588.152 - 0.009ms returns 0
T1F94 000:588.159 JLINK_WriteReg(CFBP, 0x00000000)
T1F94 000:588.165 - 0.009ms returns 0
T1F94 000:588.172 JLINK_SetBPEx(Addr = 0x20000000, Type = 0xFFFFFFF2)
T1F94 000:588.180 - 0.010ms returns 0x0000000A
T1F94 000:588.187 JLINK_Go()
T1F94 000:588.201   CPU_ReadMem(4 bytes @ 0xE0001000)
T1F94 000:593.642 - 5.474ms
T1F94 000:593.674 JLINK_IsHalted()
T1F94 000:598.415   CPU_ReadMem(2 bytes @ 0x20000000)
T1F94 000:599.007 - 5.342ms returns TRUE
T1F94 000:599.027 JLINK_ReadReg(R15 (PC))
T1F94 000:599.037 - 0.013ms returns 0x20000000
T1F94 000:599.045 JLINK_ClrBPEx(BPHandle = 0x0000000A)
T1F94 000:599.051 - 0.009ms returns 0x00
T1F94 000:599.121 JLINK_ReadReg(R0)
T1F94 000:599.134 - 0.016ms returns 0x00000000
T1F94 000:658.823 JLINK_WriteMem(0x20000000, 0x1F0 Bytes, ...)
T1F94 000:658.837   Data:  00 BE 0A E0 0D 78 2D 06 68 40 08 24 40 00 00 D3 ...
T1F94 000:658.858   CPU_WriteMem(496 bytes @ 0x20000000)
T1F94 000:664.201 - 5.401ms returns 0x1F0
T1F94 000:664.282 JLINK_HasError()
T1F94 000:664.293 JLINK_WriteReg(R0, 0x00004000)
T1F94 000:664.326 - 0.036ms returns 0
T1F94 000:664.334 JLINK_WriteReg(R1, 0x00B71B00)
T1F94 000:664.341 - 0.010ms returns 0
T1F94 000:664.349 JLINK_WriteReg(R2, 0x00000002)
T1F94 000:664.355 - 0.025ms returns 0
T1F94 000:664.378 JLINK_WriteReg(R3, 0x00000000)
T1F94 000:664.385 - 0.047ms returns 0
T1F94 000:664.433 JLINK_WriteReg(R4, 0x00000000)
T1F94 000:664.440 - 0.009ms returns 0
T1F94 000:664.447 JLINK_WriteReg(R5, 0x00000000)
T1F94 000:664.453 - 0.009ms returns 0
T1F94 000:664.479 JLINK_WriteReg(R6, 0x00000000)
T1F94 000:664.485 - 0.024ms returns 0
T1F94 000:664.508 JLINK_WriteReg(R7, 0x00000000)
T1F94 000:664.514 - 0.009ms returns 0
T1F94 000:664.521 JLINK_WriteReg(R8, 0x00000000)
T1F94 000:664.527 - 0.009ms returns 0
T1F94 000:664.535 JLINK_WriteReg(R9, 0x200001E4)
T1F94 000:664.543 - 0.011ms returns 0
T1F94 000:664.550 JLINK_WriteReg(R10, 0x00000000)
T1F94 000:664.557 - 0.009ms returns 0
T1F94 000:664.564 JLINK_WriteReg(R11, 0x00000000)
T1F94 000:664.595 - 0.034ms returns 0
T1F94 000:664.603 JLINK_WriteReg(R12, 0x00000000)
T1F94 000:664.609 - 0.009ms returns 0
T1F94 000:664.617 JLINK_WriteReg(R13 (SP), 0x20008000)
T1F94 000:664.640 - 0.026ms returns 0
T1F94 000:664.647 JLINK_WriteReg(R14, 0x20000001)
T1F94 000:664.653 - 0.009ms returns 0
T1F94 000:664.661 JLINK_WriteReg(R15 (PC), 0x20000144)
T1F94 000:664.667 - 0.009ms returns 0
T1F94 000:664.674 JLINK_WriteReg(XPSR, 0x01000000)
T1F94 000:664.680 - 0.009ms returns 0
T1F94 000:664.688 JLINK_WriteReg(MSP, 0x20008000)
T1F94 000:664.695 - 0.010ms returns 0
T1F94 000:664.703 JLINK_WriteReg(PSP, 0x20008000)
T1F94 000:664.709 - 0.009ms returns 0
T1F94 000:664.717 JLINK_WriteReg(CFBP, 0x00000000)
T1F94 000:664.723 - 0.009ms returns 0
T1F94 000:664.730 JLINK_SetBPEx(Addr = 0x20000000, Type = 0xFFFFFFF2)
T1F94 000:664.742   CPU_ReadMem(4 bytes @ 0x20000000)
T1F94 000:665.344   CPU_WriteMem(4 bytes @ 0x20000000)
T1F94 000:665.902   CPU_ReadMem(4 bytes @ 0x20000000)
T1F94 000:666.459   CPU_WriteMem(4 bytes @ 0x20000000)
T1F94 000:667.001   CPU_ReadMem(2 bytes @ 0x20000000)
T1F94 000:667.573 - 2.849ms returns 0x0000000B
T1F94 000:667.587 JLINK_Go()
T1F94 000:667.610   CPU_WriteMem(2 bytes @ 0x20000000)
T1F94 000:668.210   CPU_ReadMem(4 bytes @ 0xE0001000)
T1F94 000:673.205 - 5.630ms
T1F94 000:673.226 JLINK_IsHalted()
T1F94 000:677.770   CPU_ReadMem(2 bytes @ 0x20000000)
T1F94 000:678.315 - 5.096ms returns TRUE
T1F94 000:678.333 JLINK_ReadReg(R15 (PC))
T1F94 000:678.342 - 0.012ms returns 0x20000000
T1F94 000:678.350 JLINK_ClrBPEx(BPHandle = 0x0000000B)
T1F94 000:678.357 - 0.009ms returns 0x00
T1F94 000:678.422 JLINK_ReadReg(R0)
T1F94 000:678.436 - 0.016ms returns 0x00000000
T1F94 000:678.803 JLINK_WriteMem(0x200001F0, 0xE10 Bytes, ...)
T1F94 000:678.813   Data:  00 00 00 00 1D 60 02 00 DF F8 0C D0 00 F0 12 F8 ...
T1F94 000:678.846   CPU_WriteMem(3600 bytes @ 0x200001F0)
T1F94 000:712.882 - 34.097ms returns 0xE10
T1F94 000:712.915 JLINK_WriteMem(0x20001000, 0x1000 Bytes, ...)
T1F94 000:712.922   Data:  10 50 A2 F2 FF 32 42 43 15 14 11 98 01 28 1F D0 ...
T1F94 000:712.948   CPU_WriteMem(4096 bytes @ 0x20001000)
T1F94 000:751.553 - 38.650ms returns 0x1000
T1F94 000:751.577 JLINK_WriteMem(0x20002000, 0x1F0 Bytes, ...)
T1F94 000:751.584   Data:  01 20 05 49 08 80 00 F0 09 F8 70 BD 84 81 00 20 ...
T1F94 000:751.604   CPU_WriteMem(496 bytes @ 0x20002000)
T1F94 000:756.890 - 5.325ms returns 0x1F0
T1F94 000:756.915 JLINK_HasError()
T1F94 000:756.926 JLINK_WriteReg(R0, 0x00026000)
T1F94 000:756.939 - 0.016ms returns 0
T1F94 000:756.947 JLINK_WriteReg(R1, 0x00002000)
T1F94 000:756.953 - 0.009ms returns 0
T1F94 000:756.962 JLINK_WriteReg(R2, 0x200001F0)
T1F94 000:756.968 - 0.009ms returns 0
T1F94 000:756.976 JLINK_WriteReg(R3, 0x00000000)
T1F94 000:756.983 - 0.008ms returns 0
T1F94 000:756.991 JLINK_WriteReg(R4, 0x00000000)
T1F94 000:756.997 - 0.009ms returns 0
T1F94 000:757.005 JLINK_WriteReg(R5, 0x00000000)
T1F94 000:757.011 - 0.009ms returns 0
T1F94 000:757.019 JLINK_WriteReg(R6, 0x00000000)
T1F94 000:757.025 - 0.008ms returns 0
T1F94 000:757.034 JLINK_WriteReg(R7, 0x00000000)
T1F94 000:757.040 - 0.009ms returns 0
T1F94 000:757.048 JLINK_WriteReg(R8, 0x00000000)
T1F94 000:757.054 - 0.009ms returns 0
T1F94 000:757.061 JLINK_WriteReg(R9, 0x200001E4)
T1F94 000:757.067 - 0.042ms returns 0
T1F94 000:757.110 JLINK_WriteReg(R10, 0x00000000)
T1F94 000:757.117 - 0.009ms returns 0
T1F94 000:757.125 JLINK_WriteReg(R11, 0x00000000)
T1F94 000:757.131 - 0.009ms returns 0
T1F94 000:757.138 JLINK_WriteReg(R12, 0x00000000)
T1F94 000:757.144 - 0.008ms returns 0
T1F94 000:757.152 JLINK_WriteReg(R13 (SP), 0x20008000)
T1F94 000:757.159 - 0.009ms returns 0
T1F94 000:757.167 JLINK_WriteReg(R14, 0x20000001)
T1F94 000:757.173 - 0.009ms returns 0
T1F94 000:757.180 JLINK_WriteReg(R15 (PC), 0x2000017C)
T1F94 000:757.186 - 0.009ms returns 0
T1F94 000:757.194 JLINK_WriteReg(XPSR, 0x01000000)
T1F94 000:757.200 - 0.009ms returns 0
T1F94 000:757.263 JLINK_WriteReg(MSP, 0x20008000)
T1F94 000:757.277 - 0.016ms returns 0
T1F94 000:757.285 JLINK_WriteReg(PSP, 0x20008000)
T1F94 000:757.291 - 0.009ms returns 0
T1F94 000:757.299 JLINK_WriteReg(CFBP, 0x00000000)
T1F94 000:757.305 - 0.017ms returns 0
T1F94 000:757.321 JLINK_SetBPEx(Addr = 0x20000000, Type = 0xFFFFFFF2)
T1F94 000:757.344 - 0.040ms returns 0x0000000C
T1F94 000:757.366 JLINK_Go()
T1F94 000:757.407   CPU_ReadMem(4 bytes @ 0xE0001000)
T1F94 000:762.517 - 5.165ms
T1F94 000:762.540 JLINK_IsHalted()
T1F94 000:763.111 - 0.578ms returns FALSE
T1F94 000:763.125 JLINK_HasError()
T1F94 000:771.436 JLINK_IsHalted()
T1F94 000:772.204 - 0.776ms returns FALSE
T1F94 000:772.220 JLINK_HasError()
T1F94 000:773.482 JLINK_IsHalted()
T1F94 000:774.302 - 0.827ms returns FALSE
T1F94 000:774.326 JLINK_HasError()
T1F94 000:775.480 JLINK_IsHalted()
T1F94 000:776.292 - 0.820ms returns FALSE
T1F94 000:776.307 JLINK_HasError()
T1F94 000:777.440 JLINK_IsHalted()
T1F94 000:778.203 - 0.770ms returns FALSE
T1F94 000:778.216 JLINK_HasError()
T1F94 000:779.423 JLINK_IsHalted()
T1F94 000:780.154 - 0.737ms returns FALSE
T1F94 000:780.168 JLINK_HasError()
T1F94 000:781.463 JLINK_IsHalted()
T1F94 000:782.218 - 0.761ms returns FALSE
T1F94 000:782.233 JLINK_HasError()
T1F94 000:783.397 JLINK_IsHalted()
T1F94 000:784.190 - 0.798ms returns FALSE
T1F94 000:784.202 JLINK_HasError()
T1F94 000:785.436 JLINK_IsHalted()
T1F94 000:785.969 - 0.543ms returns FALSE
T1F94 000:785.988 JLINK_HasError()
T1F94 000:787.440 JLINK_IsHalted()
T1F94 000:787.977 - 0.543ms returns FALSE
T1F94 000:787.991 JLINK_HasError()
T1F94 000:789.305 JLINK_IsHalted()
T1F94 000:790.064 - 0.766ms returns FALSE
T1F94 000:790.077 JLINK_HasError()
T1F94 000:791.436 JLINK_IsHalted()
T1F94 000:792.228 - 0.798ms returns FALSE
T1F94 000:792.241 JLINK_HasError()
T1F94 000:793.429 JLINK_IsHalted()
T1F94 000:794.206 - 0.783ms returns FALSE
T1F94 000:794.219 JLINK_HasError()
T1F94 000:795.461 JLINK_IsHalted()
T1F94 000:796.091 - 0.637ms returns FALSE
T1F94 000:796.106 JLINK_HasError()
T1F94 000:797.298 JLINK_IsHalted()
T1F94 000:798.081 - 0.790ms returns FALSE
T1F94 000:798.095 JLINK_HasError()
T1F94 000:799.404 JLINK_IsHalted()
T1F94 000:800.189 - 0.791ms returns FALSE
T1F94 000:800.202 JLINK_HasError()
T1F94 000:801.403 JLINK_IsHalted()
T1F94 000:802.158 - 0.761ms returns FALSE
T1F94 000:802.171 JLINK_HasError()
T1F94 000:803.287 JLINK_IsHalted()
T1F94 000:804.046 - 0.765ms returns FALSE
T1F94 000:804.059 JLINK_HasError()
T1F94 000:805.385 JLINK_IsHalted()
T1F94 000:806.158 - 0.779ms returns FALSE
T1F94 000:806.171 JLINK_HasError()
T1F94 000:807.383 JLINK_IsHalted()
T1F94 000:808.139 - 0.763ms returns FALSE
T1F94 000:808.155 JLINK_HasError()
T1F94 000:809.367 JLINK_IsHalted()
T1F94 000:810.090 - 0.730ms returns FALSE
T1F94 000:810.105 JLINK_HasError()
T1F94 000:811.362 JLINK_IsHalted()
T1F94 000:812.173 - 0.818ms returns FALSE
T1F94 000:812.188 JLINK_HasError()
T1F94 000:813.468 JLINK_IsHalted()
T1F94 000:814.070 - 0.610ms returns FALSE
T1F94 000:814.087 JLINK_HasError()
T1F94 000:815.484 JLINK_IsHalted()
T1F94 000:816.086 - 0.609ms returns FALSE
T1F94 000:816.101 JLINK_HasError()
T1F94 000:817.466 JLINK_IsHalted()
T1F94 000:818.121 - 0.662ms returns FALSE
T1F94 000:818.137 JLINK_HasError()
T1F94 000:819.470 JLINK_IsHalted()
T1F94 000:819.999 - 0.604ms returns FALSE
T1F94 000:820.112 JLINK_HasError()
T1F94 000:821.529 JLINK_IsHalted()
T1F94 000:822.294 - 0.797ms returns FALSE
T1F94 000:822.338 JLINK_HasError()
T1F94 000:823.532 JLINK_IsHalted()
T1F94 000:824.385 - 0.878ms returns FALSE
T1F94 000:824.425 JLINK_HasError()
T1F94 000:826.494 JLINK_IsHalted()
T1F94 000:827.246 - 0.774ms returns FALSE
T1F94 000:827.282 JLINK_HasError()
T1F94 000:829.394 JLINK_IsHalted()
T1F94 000:830.175 - 0.791ms returns FALSE
T1F94 000:830.196 JLINK_HasError()
T1F94 000:831.379 JLINK_IsHalted()
T1F94 000:832.136 - 0.767ms returns FALSE
T1F94 000:832.156 JLINK_HasError()
T1F94 000:833.381 JLINK_IsHalted()
T1F94 000:833.967 - 0.596ms returns FALSE
T1F94 000:833.994 JLINK_HasError()
T1F94 000:835.398 JLINK_IsHalted()
T1F94 000:835.961 - 0.577ms returns FALSE
T1F94 000:835.989 JLINK_HasError()
T1F94 000:837.416 JLINK_IsHalted()
T1F94 000:838.191 - 0.787ms returns FALSE
T1F94 000:838.215 JLINK_HasError()
T1F94 000:839.359 JLINK_IsHalted()
T1F94 000:840.179 - 0.833ms returns FALSE
T1F94 000:840.206 JLINK_HasError()
T1F94 000:842.361 JLINK_IsHalted()
T1F94 000:843.138 - 0.790ms returns FALSE
T1F94 000:843.166 JLINK_HasError()
T1F94 000:846.341 JLINK_IsHalted()
T1F94 000:851.314   CPU_ReadMem(2 bytes @ 0x20000000)
T1F94 000:852.108 - 5.781ms returns TRUE
T1F94 000:852.137 JLINK_ReadReg(R15 (PC))
T1F94 000:852.156 - 0.025ms returns 0x20000000
T1F94 000:852.173 JLINK_ClrBPEx(BPHandle = 0x0000000C)
T1F94 000:852.189 - 0.022ms returns 0x00
T1F94 000:852.206 JLINK_ReadReg(R0)
T1F94 000:852.220 - 0.021ms returns 0x00000000
T1F94 000:853.276 JLINK_WriteMem(0x200001F0, 0xE10 Bytes, ...)
T1F94 000:853.315   Data:  FE F7 D4 F8 4F F0 FF 30 C4 E7 00 00 54 54 4D 3A ...
T1F94 000:853.359   CPU_WriteMem(3600 bytes @ 0x200001F0)
T1F94 000:887.535 - 34.305ms returns 0xE10
T1F94 000:887.621 JLINK_WriteMem(0x20001000, 0x1000 Bytes, ...)
T1F94 000:887.650   Data:  0A 00 00 00 38 B5 04 46 01 2C 01 D1 08 A0 00 E0 ...
T1F94 000:887.717   CPU_WriteMem(4096 bytes @ 0x20001000)
T1F94 000:926.593 - 39.015ms returns 0x1000
T1F94 000:926.677 JLINK_WriteMem(0x20002000, 0x1F0 Bytes, ...)
T1F94 000:926.706   Data:  C2 E9 00 10 63 E0 05 9F 24 E0 06 99 01 F2 6C 70 ...
T1F94 000:926.771   CPU_WriteMem(496 bytes @ 0x20002000)
T1F94 000:932.334 - 5.703ms returns 0x1F0
T1F94 000:932.423 JLINK_HasError()
T1F94 000:932.466 JLINK_WriteReg(R0, 0x00028000)
T1F94 000:932.506 - 0.052ms returns 0
T1F94 000:932.542 JLINK_WriteReg(R1, 0x00002000)
T1F94 000:932.568 - 0.038ms returns 0
T1F94 000:932.733 JLINK_WriteReg(R2, 0x200001F0)
T1F94 000:932.789 - 0.070ms returns 0
T1F94 000:932.823 JLINK_WriteReg(R3, 0x00000000)
T1F94 000:932.850 - 0.039ms returns 0
T1F94 000:932.880 JLINK_WriteReg(R4, 0x00000000)
T1F94 000:932.906 - 0.037ms returns 0
T1F94 000:932.936 JLINK_WriteReg(R5, 0x00000000)
T1F94 000:932.961 - 0.037ms returns 0
T1F94 000:932.991 JLINK_WriteReg(R6, 0x00000000)
T1F94 000:933.016 - 0.037ms returns 0
T1F94 000:933.046 JLINK_WriteReg(R7, 0x00000000)
T1F94 000:933.071 - 0.036ms returns 0
T1F94 000:933.100 JLINK_WriteReg(R8, 0x00000000)
T1F94 000:933.131 - 0.043ms returns 0
T1F94 000:933.162 JLINK_WriteReg(R9, 0x200001E4)
T1F94 000:933.187 - 0.038ms returns 0
T1F94 000:933.220 JLINK_WriteReg(R10, 0x00000000)
T1F94 000:933.249 - 0.041ms returns 0
T1F94 000:933.279 JLINK_WriteReg(R11, 0x00000000)
T1F94 000:933.305 - 0.038ms returns 0
T1F94 000:933.335 JLINK_WriteReg(R12, 0x00000000)
T1F94 000:933.360 - 0.036ms returns 0
T1F94 000:933.389 JLINK_WriteReg(R13 (SP), 0x20008000)
T1F94 000:933.416 - 0.038ms returns 0
T1F94 000:933.446 JLINK_WriteReg(R14, 0x20000001)
T1F94 000:933.471 - 0.037ms returns 0
T1F94 000:933.502 JLINK_WriteReg(R15 (PC), 0x2000017C)
T1F94 000:933.527 - 0.037ms returns 0
T1F94 000:933.557 JLINK_WriteReg(XPSR, 0x01000000)
T1F94 000:933.582 - 0.037ms returns 0
T1F94 000:933.612 JLINK_WriteReg(MSP, 0x20008000)
T1F94 000:933.636 - 0.036ms returns 0
T1F94 000:933.666 JLINK_WriteReg(PSP, 0x20008000)
T1F94 000:933.691 - 0.036ms returns 0
T1F94 000:933.821 JLINK_WriteReg(CFBP, 0x00000000)
T1F94 000:933.854 - 0.045ms returns 0
T1F94 000:933.885 JLINK_SetBPEx(Addr = 0x20000000, Type = 0xFFFFFFF2)
T1F94 000:933.916 - 0.043ms returns 0x0000000D
T1F94 000:933.946 JLINK_Go()
T1F94 000:933.996   CPU_ReadMem(4 bytes @ 0xE0001000)
T1F94 000:940.067 - 6.169ms
T1F94 000:940.148 JLINK_IsHalted()
T1F94 000:941.117 - 1.013ms returns FALSE
T1F94 000:941.194 JLINK_HasError()
T1F94 000:943.319 JLINK_IsHalted()
T1F94 000:944.265 - 0.990ms returns FALSE
T1F94 000:944.340 JLINK_HasError()
T1F94 000:946.239 JLINK_IsHalted()
T1F94 000:947.255 - 1.061ms returns FALSE
T1F94 000:947.335 JLINK_HasError()
T1F94 000:949.300 JLINK_IsHalted()
T1F94 000:949.970 - 0.713ms returns FALSE
T1F94 000:950.077 JLINK_HasError()
T1F94 000:957.242 JLINK_IsHalted()
T1F94 000:958.251 - 1.052ms returns FALSE
T1F94 000:958.334 JLINK_HasError()
T1F94 000:960.274 JLINK_IsHalted()
T1F94 000:961.242 - 1.011ms returns FALSE
T1F94 000:961.317 JLINK_HasError()
T1F94 000:963.266 JLINK_IsHalted()
T1F94 000:964.239 - 1.014ms returns FALSE
T1F94 000:964.313 JLINK_HasError()
T1F94 000:966.187 JLINK_IsHalted()
T1F94 000:967.193 - 1.048ms returns FALSE
T1F94 000:967.267 JLINK_HasError()
T1F94 000:969.100 JLINK_IsHalted()
T1F94 000:969.945 - 0.887ms returns FALSE
T1F94 000:970.026 JLINK_HasError()
T1F94 000:975.217 JLINK_IsHalted()
T1F94 000:976.209 - 1.034ms returns FALSE
T1F94 000:976.284 JLINK_HasError()
T1F94 000:978.168 JLINK_IsHalted()
T1F94 000:978.996 - 0.873ms returns FALSE
T1F94 000:979.076 JLINK_HasError()
T1F94 000:985.055 JLINK_IsHalted()
T1F94 000:985.919 - 0.912ms returns FALSE
T1F94 000:986.001 JLINK_HasError()
T1F94 000:991.134 JLINK_IsHalted()
T1F94 000:991.987 - 0.896ms returns FALSE
T1F94 000:992.064 JLINK_HasError()
T1F94 000:994.162 JLINK_IsHalted()
T1F94 000:995.015 - 0.899ms returns FALSE
T1F94 000:995.094 JLINK_HasError()
